T4E64 000:000.704   SEGGER J-Link V8.74 Log File
T4E64 000:000.874   DLL Compiled: Sep 30 2025 12:11:23
T4E64 000:000.881   Logging started @ 2025-12-11 09:08
T4E64 000:000.887   Process: C:\Users\demon\.eclipse\com.renesas.platform_466585854\DebugComp\RA\e2-server-gdb.exe
T4E64 000:000.898 - 0.892ms 
T4E64 000:000.911 JLINK_GetDLLVersion()
T4E64 000:000.917 - 0.007ms returns 87400
T4E64 000:003.199 JLINK_OpenEx(...)
T4E64 000:011.140   Firmware: J-Link OB-RA4M2 compiled Jul  8 2025 10:15:56
T4E64 000:011.807   Firmware: J-Link OB-RA4M2 compiled Jul  8 2025 10:15:56
T4E64 000:023.419   Hardware: V1.00
T4E64 000:023.454   S/N: 1088248238
T4E64 000:023.466   OEM: SEGGER
T4E64 000:023.477   Feature(s): None
T4E64 000:024.010   Bootloader: 2021 May 14
T4E64 000:024.346   USB speed mode: Full speed (12 MBit/s)
T4E64 000:024.660   TELNET listener socket opened on port 19021
T4E64 000:024.876   WEBSRV WEBSRV_Init(): Starting webserver thread(s)
T4E64 000:025.025   WEBSRV Webserver running on local port 19080
T4E64 000:025.148   Looking for J-Link GUI Server exe at: C:\Users\demon\.eclipse\com.renesas.platform_466585854\DebugComp\RA\ARM\Segger_v8.74.0\JLinkGUIServer.exe
T4E64 000:025.358   Looking for J-Link GUI Server exe at: \JLinkGUIServer.exe
T4E64 000:334.395   Failed to connect to J-Link GUI Server.
T4E64 000:334.441 - 331.233ms returns "O.K."
T4E64 000:334.551 JLINK_TIF_Select(JLINKARM_TIF_SWD)
T4E64 000:335.118 - 0.569ms returns 0x00
T4E64 000:335.153 JLINK_ClrRESET()
T4E64 000:335.349 - 0.196ms 
T4E64 000:386.497 JLINK_SetSpeed(1500)
T4E64 000:386.689 - 0.200ms 
T4E64 000:386.713 JLINK_CORESIGHT_Configure(PerformTIFInit=0)
T4E64 000:387.096 - 0.387ms returns 0
T4E64 000:387.112 JLINK_CORESIGHT_ReadAPDPReg(DP reg 0x00)
T4E64 000:387.512   Value=0x6BA02477
T4E64 000:387.520 - 0.410ms returns 0
T4E64 000:387.529 JLINK_CORESIGHT_WriteAPDPReg(DP reg 0x00, 0x0000001F)
T4E64 000:387.785 - 0.255ms returns 0
T4E64 000:387.798 JLINK_CORESIGHT_ReadAPDPReg(DP reg 0x00)
T4E64 000:387.981   Value=0x6BA02477
T4E64 000:387.992 - 0.194ms returns 0
T4E64 000:388.008 JLINK_CORESIGHT_WriteAPDPReg(DP reg 0x02, 0x00000000)
T4E64 000:388.200 - 0.192ms returns 0
T4E64 000:388.210 JLINK_CORESIGHT_WriteAPDPReg(DP reg 0x01, 0x50000000)
T4E64 000:388.400 - 0.189ms returns 0
T4E64 000:388.413 JLINK_CORESIGHT_ReadAPDPReg(DP reg 0x01)
T4E64 000:388.595   Value=0xF0000000
T4E64 000:388.606 - 0.193ms returns 0
T4E64 000:388.615 JLINK_CORESIGHT_WriteAPDPReg(DP reg 0x00, 0x0000001F)
T4E64 000:388.810 - 0.195ms returns 0
T4E64 000:388.819 JLINK_CORESIGHT_ReadAPDPReg(DP reg 0x00)
T4E64 000:389.001   Value=0x6BA02477
T4E64 000:389.011 - 0.191ms returns 0
T4E64 000:389.019 JLINK_CORESIGHT_WriteAPDPReg(DP reg 0x01, 0x54000000)
T4E64 000:389.201 - 0.181ms returns 0
T4E64 000:389.212 JLINK_CORESIGHT_WriteAPDPReg(DP reg 0x01, 0x50000F00)
T4E64 000:389.404 - 0.192ms returns 0
T4E64 000:389.423 JLINK_CORESIGHT_WriteAPDPReg(DP reg 0x02, 0x01000000)
T4E64 000:389.604 - 0.181ms returns 0
T4E64 000:389.614 JLINK_CORESIGHT_WriteAPDPReg(AP reg 0x00, 0x80000002)
T4E64 000:389.794 - 0.179ms returns 0
T4E64 000:389.805 JLINK_CORESIGHT_WriteAPDPReg(AP reg 0x01, 0x80011100)
T4E64 000:389.984 - 0.178ms returns 0
T4E64 000:389.995 JLINK_CORESIGHT_WriteAPDPReg(AP reg 0x03, 0x000000A5)
T4E64 000:390.208 - 0.213ms returns 0
T4E64 000:390.218 JLINK_CORESIGHT_WriteAPDPReg(AP reg 0x00, 0x80000002)
T4E64 000:390.395 - 0.176ms returns 0
T4E64 000:390.404 JLINK_CORESIGHT_WriteAPDPReg(AP reg 0x01, 0x80011100)
T4E64 000:390.568 - 0.164ms returns 0
T4E64 000:390.578 JLINK_CORESIGHT_ReadAPDPReg(AP reg 0x03)
T4E64 000:390.800   Value=0x000000A5
T4E64 000:390.811 - 0.233ms returns 0
T4E64 000:390.821 JLINK_ClrTMS()
T4E64 000:390.873 - 0.051ms 
T4E64 000:396.145 JLINK_SetTCK()
T4E64 000:396.248 - 0.103ms returns 0
T4E64 000:402.011 JLINK_SetRESET()
T4E64 000:402.140 - 0.128ms 
T4E64 000:602.244 JLINK_CORESIGHT_WriteAPDPReg(AP reg 0x00, 0x80000002)
T4E64 000:602.609 - 0.365ms returns 0
T4E64 000:602.631 JLINK_CORESIGHT_WriteAPDPReg(AP reg 0x01, 0x80011100)
T4E64 000:602.940 - 0.308ms returns 0
T4E64 000:602.957 JLINK_CORESIGHT_ReadAPDPReg(AP reg 0x03)
T4E64 000:603.211   Value=0x00000000
T4E64 000:603.233 - 0.275ms returns 0
T4E64 000:603.247 JLINK_CORESIGHT_WriteAPDPReg(AP reg 0x00, 0x80000002)
T4E64 000:603.476 - 0.229ms returns 0
T4E64 000:603.488 JLINK_CORESIGHT_WriteAPDPReg(AP reg 0x01, 0x80011140)
T4E64 000:603.677 - 0.189ms returns 0
T4E64 000:603.691 JLINK_CORESIGHT_ReadAPDPReg(AP reg 0x03)
T4E64 000:603.955   Value=0x00000002
T4E64 000:603.969 - 0.277ms returns 0
T4E64 000:603.980 JLINK_CORESIGHT_WriteAPDPReg(AP reg 0x00, 0x80000002)
T4E64 000:604.191 - 0.210ms returns 0
T4E64 000:604.201 JLINK_CORESIGHT_WriteAPDPReg(AP reg 0x01, 0x80011120)
T4E64 000:604.382 - 0.181ms returns 0
T4E64 000:604.391 JLINK_CORESIGHT_WriteAPDPReg(AP reg 0x03, 0x00000055)
T4E64 000:604.564 - 0.172ms returns 0
T4E64 000:604.574 JLINK_CORESIGHT_WriteAPDPReg(AP reg 0x00, 0x80000002)
T4E64 000:604.784 - 0.211ms returns 0
T4E64 000:604.795 JLINK_CORESIGHT_WriteAPDPReg(AP reg 0x01, 0x80011140)
T4E64 000:604.975 - 0.179ms returns 0
T4E64 000:604.986 JLINK_CORESIGHT_ReadAPDPReg(AP reg 0x03)
T4E64 000:605.225   Value=0x00000000
T4E64 000:605.237 - 0.251ms returns 0
T4E64 000:605.247 JLINK_CORESIGHT_WriteAPDPReg(AP reg 0x00, 0x80000002)
T4E64 000:605.452 - 0.205ms returns 0
T4E64 000:605.462 JLINK_CORESIGHT_WriteAPDPReg(AP reg 0x01, 0x80011130)
T4E64 000:605.673 - 0.211ms returns 0
T4E64 000:605.685 JLINK_CORESIGHT_ReadAPDPReg(AP reg 0x03)
T4E64 000:605.939   Value=0x000000C6
T4E64 000:605.951 - 0.266ms returns 0
T4E64 000:605.968 JLINK_CORESIGHT_WriteAPDPReg(AP reg 0x00, 0x80000002)
T4E64 000:606.155 - 0.187ms returns 0
T4E64 000:606.165 JLINK_CORESIGHT_WriteAPDPReg(AP reg 0x01, 0x80011140)
T4E64 000:606.342 - 0.177ms returns 0
T4E64 000:606.354 JLINK_CORESIGHT_ReadAPDPReg(AP reg 0x03)
T4E64 000:606.590   Value=0x00000002
T4E64 000:606.602 - 0.247ms returns 0
T4E64 000:606.612 JLINK_CORESIGHT_WriteAPDPReg(AP reg 0x00, 0x80000002)
T4E64 000:606.795 - 0.183ms returns 0
T4E64 000:606.803 JLINK_CORESIGHT_WriteAPDPReg(AP reg 0x01, 0x80011120)
T4E64 000:606.981 - 0.177ms returns 0
T4E64 000:606.992 JLINK_CORESIGHT_WriteAPDPReg(AP reg 0x03, 0x3A010001)
T4E64 000:607.180 - 0.188ms returns 0
T4E64 000:607.189 JLINK_CORESIGHT_WriteAPDPReg(AP reg 0x00, 0x80000002)
T4E64 000:607.357 - 0.167ms returns 0
T4E64 000:607.365 JLINK_CORESIGHT_WriteAPDPReg(AP reg 0x01, 0x80011140)
T4E64 000:607.543 - 0.178ms returns 0
T4E64 000:607.551 JLINK_CORESIGHT_ReadAPDPReg(AP reg 0x03)
T4E64 000:607.783   Value=0x00000002
T4E64 000:607.793 - 0.241ms returns 0
T4E64 000:607.801 JLINK_CORESIGHT_WriteAPDPReg(AP reg 0x00, 0x80000002)
T4E64 000:607.975 - 0.174ms returns 0
T4E64 000:607.983 JLINK_CORESIGHT_WriteAPDPReg(AP reg 0x01, 0x80011120)
T4E64 000:608.165 - 0.181ms returns 0
T4E64 000:608.173 JLINK_CORESIGHT_WriteAPDPReg(AP reg 0x03, 0x000003C5)
T4E64 000:608.344 - 0.171ms returns 0
T4E64 000:608.353 JLINK_CORESIGHT_WriteAPDPReg(AP reg 0x00, 0x80000002)
T4E64 000:608.528 - 0.175ms returns 0
T4E64 000:608.536 JLINK_CORESIGHT_WriteAPDPReg(AP reg 0x01, 0x80011140)
T4E64 000:608.817 - 0.280ms returns 0
T4E64 000:608.832 JLINK_CORESIGHT_ReadAPDPReg(AP reg 0x03)
T4E64 000:609.078   Value=0x00000002
T4E64 000:609.093 - 0.261ms returns 0
T4E64 000:609.103 JLINK_CORESIGHT_ReadAPDPReg(AP reg 0x03)
T4E64 000:609.344   Value=0x00000002
T4E64 000:609.355 - 0.252ms returns 0
T4E64 000:609.363 JLINK_CORESIGHT_ReadAPDPReg(AP reg 0x03)
T4E64 000:609.593   Value=0x00000002
T4E64 000:609.603 - 0.240ms returns 0
T4E64 000:609.611 JLINK_CORESIGHT_ReadAPDPReg(AP reg 0x03)
T4E64 000:609.833   Value=0x00000000
T4E64 000:609.843 - 0.232ms returns 0
T4E64 000:609.851 JLINK_CORESIGHT_WriteAPDPReg(AP reg 0x00, 0x80000002)
T4E64 000:610.027 - 0.176ms returns 0
T4E64 000:610.037 JLINK_CORESIGHT_WriteAPDPReg(AP reg 0x01, 0x80011130)
T4E64 000:610.226 - 0.188ms returns 0
T4E64 000:610.238 JLINK_CORESIGHT_ReadAPDPReg(AP reg 0x03)
T4E64 000:610.473   Value=0x3A2A0081
T4E64 000:610.554 - 0.316ms returns 0
T4E64 000:610.566 JLINK_CORESIGHT_WriteAPDPReg(AP reg 0x00, 0x80000002)
T4E64 000:610.787 - 0.221ms returns 0
T4E64 000:610.806 JLINK_CORESIGHT_WriteAPDPReg(AP reg 0x01, 0x80011140)
T4E64 000:610.993 - 0.187ms returns 0
T4E64 000:611.004 JLINK_CORESIGHT_ReadAPDPReg(AP reg 0x03)
T4E64 000:611.238   Value=0x00000000
T4E64 000:611.254 - 0.250ms returns 0
T4E64 000:611.265 JLINK_CORESIGHT_WriteAPDPReg(AP reg 0x00, 0x80000002)
T4E64 000:611.468 - 0.202ms returns 0
T4E64 000:611.481 JLINK_CORESIGHT_WriteAPDPReg(AP reg 0x01, 0x80011130)
T4E64 000:611.662 - 0.181ms returns 0
T4E64 000:611.670 JLINK_CORESIGHT_ReadAPDPReg(AP reg 0x03)
T4E64 000:611.943   Value=0x808D5B00
T4E64 000:611.953 - 0.282ms returns 0
T4E64 000:611.961 JLINK_CORESIGHT_WriteAPDPReg(AP reg 0x00, 0x80000002)
T4E64 000:612.145 - 0.184ms returns 0
T4E64 000:612.157 JLINK_CORESIGHT_WriteAPDPReg(AP reg 0x01, 0x80011140)
T4E64 000:612.334 - 0.177ms returns 0
T4E64 000:612.343 JLINK_CORESIGHT_ReadAPDPReg(AP reg 0x03)
T4E64 000:612.597   Value=0x00000000
T4E64 000:612.619 - 0.276ms returns 0
T4E64 000:612.633 JLINK_CORESIGHT_WriteAPDPReg(AP reg 0x00, 0x80000002)
T4E64 000:612.887 - 0.254ms returns 0
T4E64 000:612.901 JLINK_CORESIGHT_WriteAPDPReg(AP reg 0x01, 0x80011130)
T4E64 000:613.103 - 0.202ms returns 0
T4E64 000:613.118 JLINK_CORESIGHT_ReadAPDPReg(AP reg 0x03)
T4E64 000:613.361   Value=0x0603030B
T4E64 000:613.371 - 0.252ms returns 0
T4E64 000:613.379 JLINK_CORESIGHT_WriteAPDPReg(AP reg 0x00, 0x80000002)
T4E64 000:613.559 - 0.180ms returns 0
T4E64 000:613.574 JLINK_CORESIGHT_WriteAPDPReg(AP reg 0x01, 0x80011140)
T4E64 000:613.790 - 0.215ms returns 0
T4E64 000:614.398 JLINK_CORESIGHT_ReadAPDPReg(AP reg 0x03)
T4E64 000:614.665   Value=0x00000000
T4E64 000:614.680 - 0.282ms returns 0
T4E64 000:614.689 JLINK_CORESIGHT_WriteAPDPReg(AP reg 0x00, 0x80000002)
T4E64 000:614.886 - 0.196ms returns 0
T4E64 000:614.900 JLINK_CORESIGHT_WriteAPDPReg(AP reg 0x01, 0x80011130)
T4E64 000:615.081 - 0.181ms returns 0
T4E64 000:615.090 JLINK_CORESIGHT_ReadAPDPReg(AP reg 0x03)
T4E64 000:615.322   Value=0x2E4B4E20
T4E64 000:615.336 - 0.245ms returns 0
T4E64 000:615.347 JLINK_CORESIGHT_WriteAPDPReg(AP reg 0x00, 0x80000002)
T4E64 000:615.532 - 0.185ms returns 0
T4E64 000:615.544 JLINK_CORESIGHT_WriteAPDPReg(AP reg 0x01, 0x80011140)
T4E64 000:615.784 - 0.240ms returns 0
T4E64 000:615.792 JLINK_CORESIGHT_ReadAPDPReg(AP reg 0x03)
T4E64 000:616.025   Value=0x00000000
T4E64 000:616.038 - 0.245ms returns 0
T4E64 000:616.050 JLINK_CORESIGHT_WriteAPDPReg(AP reg 0x00, 0x80000002)
T4E64 000:616.238 - 0.189ms returns 0
T4E64 000:616.249 JLINK_CORESIGHT_WriteAPDPReg(AP reg 0x01, 0x80011130)
T4E64 000:616.429 - 0.179ms returns 0
T4E64 000:616.438 JLINK_CORESIGHT_ReadAPDPReg(AP reg 0x03)
T4E64 000:616.804   Value=0x46B36FEA
T4E64 000:616.813 - 0.376ms returns 0
T4E64 000:616.821 JLINK_CORESIGHT_WriteAPDPReg(AP reg 0x00, 0x80000002)
T4E64 000:617.007 - 0.185ms returns 0
T4E64 000:617.019 JLINK_CORESIGHT_WriteAPDPReg(AP reg 0x01, 0x80011140)
T4E64 000:617.212 - 0.194ms returns 0
T4E64 000:617.224 JLINK_CORESIGHT_ReadAPDPReg(AP reg 0x03)
T4E64 000:617.461   Value=0x00000000
T4E64 000:617.471 - 0.247ms returns 0
T4E64 000:617.480 JLINK_CORESIGHT_WriteAPDPReg(AP reg 0x00, 0x80000002)
T4E64 000:617.674 - 0.194ms returns 0
T4E64 000:617.683 JLINK_CORESIGHT_WriteAPDPReg(AP reg 0x01, 0x80011130)
T4E64 000:617.889 - 0.205ms returns 0
T4E64 000:617.901 JLINK_CORESIGHT_ReadAPDPReg(AP reg 0x03)
T4E64 000:618.158   Value=0x31305853
T4E64 000:618.175 - 0.274ms returns 0
T4E64 000:618.185 JLINK_CORESIGHT_WriteAPDPReg(AP reg 0x00, 0x80000002)
T4E64 000:618.392 - 0.206ms returns 0
T4E64 000:618.403 JLINK_CORESIGHT_WriteAPDPReg(AP reg 0x01, 0x80011140)
T4E64 000:618.588 - 0.184ms returns 0
T4E64 000:618.602 JLINK_CORESIGHT_ReadAPDPReg(AP reg 0x03)
T4E64 000:618.862   Value=0x00000000
T4E64 000:618.870 - 0.268ms returns 0
T4E64 000:618.877 JLINK_CORESIGHT_WriteAPDPReg(AP reg 0x00, 0x80000002)
T4E64 000:619.055 - 0.177ms returns 0
T4E64 000:619.064 JLINK_CORESIGHT_WriteAPDPReg(AP reg 0x01, 0x80011130)
T4E64 000:619.244 - 0.180ms returns 0
T4E64 000:619.254 JLINK_CORESIGHT_ReadAPDPReg(AP reg 0x03)
T4E64 000:619.488   Value=0x6D064333
T4E64 000:619.502 - 0.247ms returns 0
T4E64 000:619.513 JLINK_CORESIGHT_WriteAPDPReg(AP reg 0x00, 0x80000002)
T4E64 000:619.698 - 0.185ms returns 0
T4E64 000:619.709 JLINK_CORESIGHT_WriteAPDPReg(AP reg 0x01, 0x80011140)
T4E64 000:619.884 - 0.175ms returns 0
T4E64 000:619.894 JLINK_CORESIGHT_ReadAPDPReg(AP reg 0x03)
T4E64 000:620.124   Value=0x00000000
T4E64 000:620.131 - 0.237ms returns 0
T4E64 000:620.138 JLINK_CORESIGHT_WriteAPDPReg(AP reg 0x00, 0x80000002)
T4E64 000:620.307 - 0.169ms returns 0
T4E64 000:620.314 JLINK_CORESIGHT_WriteAPDPReg(AP reg 0x01, 0x80011130)
T4E64 000:620.482 - 0.167ms returns 0
T4E64 000:620.492 JLINK_CORESIGHT_ReadAPDPReg(AP reg 0x03)
T4E64 000:620.789   Value=0x46375298
T4E64 000:620.800 - 0.308ms returns 0
T4E64 000:620.810 JLINK_CORESIGHT_WriteAPDPReg(AP reg 0x00, 0x80000002)
T4E64 000:620.979 - 0.169ms returns 0
T4E64 000:620.992 JLINK_CORESIGHT_WriteAPDPReg(AP reg 0x01, 0x80011140)
T4E64 000:621.179 - 0.187ms returns 0
T4E64 000:621.187 JLINK_CORESIGHT_ReadAPDPReg(AP reg 0x03)
T4E64 000:621.414   Value=0x00000000
T4E64 000:621.425 - 0.238ms returns 0
T4E64 000:621.435 JLINK_CORESIGHT_WriteAPDPReg(AP reg 0x00, 0x80000002)
T4E64 000:621.606 - 0.171ms returns 0
T4E64 000:621.616 JLINK_CORESIGHT_WriteAPDPReg(AP reg 0x01, 0x80011130)
T4E64 000:621.794 - 0.177ms returns 0
T4E64 000:621.801 JLINK_CORESIGHT_ReadAPDPReg(AP reg 0x03)
T4E64 000:622.025   Value=0x31443841
T4E64 000:622.035 - 0.233ms returns 0
T4E64 000:622.044 JLINK_CORESIGHT_WriteAPDPReg(AP reg 0x00, 0x80000002)
T4E64 000:622.225 - 0.181ms returns 0
T4E64 000:622.233 JLINK_CORESIGHT_WriteAPDPReg(AP reg 0x01, 0x80011140)
T4E64 000:622.403 - 0.169ms returns 0
T4E64 000:622.413 JLINK_CORESIGHT_ReadAPDPReg(AP reg 0x03)
T4E64 000:622.638   Value=0x00000000
T4E64 000:622.648 - 0.235ms returns 0
T4E64 000:622.657 JLINK_CORESIGHT_WriteAPDPReg(AP reg 0x00, 0x80000002)
T4E64 000:622.905 - 0.248ms returns 0
T4E64 000:622.923 JLINK_CORESIGHT_WriteAPDPReg(AP reg 0x01, 0x80011130)
T4E64 000:623.106 - 0.183ms returns 0
T4E64 000:623.116 JLINK_CORESIGHT_ReadAPDPReg(AP reg 0x03)
T4E64 000:623.341   Value=0x43454842
T4E64 000:623.353 - 0.236ms returns 0
T4E64 000:623.362 JLINK_CORESIGHT_WriteAPDPReg(AP reg 0x00, 0x80000002)
T4E64 000:623.535 - 0.173ms returns 0
T4E64 000:623.545 JLINK_CORESIGHT_WriteAPDPReg(AP reg 0x01, 0x80011140)
T4E64 000:623.780 - 0.236ms returns 0
T4E64 000:623.788 JLINK_CORESIGHT_ReadAPDPReg(AP reg 0x03)
T4E64 000:624.013   Value=0x00000000
T4E64 000:624.020 - 0.232ms returns 0
T4E64 000:624.027 JLINK_CORESIGHT_WriteAPDPReg(AP reg 0x00, 0x80000002)
T4E64 000:624.204 - 0.176ms returns 0
T4E64 000:624.211 JLINK_CORESIGHT_WriteAPDPReg(AP reg 0x01, 0x80011130)
T4E64 000:624.383 - 0.171ms returns 0
T4E64 000:624.390 JLINK_CORESIGHT_ReadAPDPReg(AP reg 0x03)
T4E64 000:624.615   Value=0x20204442
T4E64 000:624.622 - 0.232ms returns 0
T4E64 000:624.629 JLINK_CORESIGHT_WriteAPDPReg(AP reg 0x00, 0x80000002)
T4E64 000:624.813 - 0.184ms returns 0
T4E64 000:624.826 JLINK_CORESIGHT_WriteAPDPReg(AP reg 0x01, 0x80011140)
T4E64 000:625.012 - 0.186ms returns 0
T4E64 000:625.032 JLINK_CORESIGHT_ReadAPDPReg(AP reg 0x03)
T4E64 000:625.283   Value=0x00000000
T4E64 000:625.292 - 0.260ms returns 0
T4E64 000:625.299 JLINK_CORESIGHT_WriteAPDPReg(AP reg 0x00, 0x80000002)
T4E64 000:625.467 - 0.168ms returns 0
T4E64 000:625.474 JLINK_CORESIGHT_WriteAPDPReg(AP reg 0x01, 0x80011130)
T4E64 000:625.640 - 0.166ms returns 0
T4E64 000:625.647 JLINK_CORESIGHT_ReadAPDPReg(AP reg 0x03)
T4E64 000:625.877   Value=0x0003A220
T4E64 000:625.885 - 0.237ms returns 0
T4E64 000:625.946 JLINK_CORESIGHT_WriteAPDPReg(AP reg 0x00, 0x80000002)
T4E64 000:626.137 - 0.190ms returns 0
T4E64 000:626.144 JLINK_CORESIGHT_WriteAPDPReg(AP reg 0x01, 0x80011140)
T4E64 000:626.308 - 0.164ms returns 0
T4E64 000:626.320 JLINK_CORESIGHT_ReadAPDPReg(AP reg 0x03)
T4E64 000:626.539   Value=0x00000002
T4E64 000:626.547 - 0.227ms returns 0
T4E64 000:626.554 JLINK_CORESIGHT_WriteAPDPReg(AP reg 0x00, 0x80000002)
T4E64 000:626.780 - 0.225ms returns 0
T4E64 000:626.786 JLINK_CORESIGHT_WriteAPDPReg(AP reg 0x01, 0x80011120)
T4E64 000:626.951 - 0.164ms returns 0
T4E64 000:626.958 JLINK_CORESIGHT_WriteAPDPReg(AP reg 0x03, 0x2C010001)
T4E64 000:627.136 - 0.178ms returns 0
T4E64 000:627.147 JLINK_CORESIGHT_WriteAPDPReg(AP reg 0x00, 0x80000002)
T4E64 000:627.318 - 0.171ms returns 0
T4E64 000:627.325 JLINK_CORESIGHT_WriteAPDPReg(AP reg 0x01, 0x80011140)
T4E64 000:627.501 - 0.175ms returns 0
T4E64 000:627.511 JLINK_CORESIGHT_ReadAPDPReg(AP reg 0x03)
T4E64 000:627.790   Value=0x00000002
T4E64 000:627.804 - 0.293ms returns 0
T4E64 000:627.813 JLINK_CORESIGHT_WriteAPDPReg(AP reg 0x00, 0x80000002)
T4E64 000:628.000 - 0.187ms returns 0
T4E64 000:628.013 JLINK_CORESIGHT_WriteAPDPReg(AP reg 0x01, 0x80011120)
T4E64 000:628.207 - 0.194ms returns 0
T4E64 000:628.217 JLINK_CORESIGHT_WriteAPDPReg(AP reg 0x03, 0x000003D3)
T4E64 000:628.399 - 0.182ms returns 0
T4E64 000:628.418 JLINK_CORESIGHT_WriteAPDPReg(AP reg 0x00, 0x80000002)
T4E64 000:628.602 - 0.184ms returns 0
T4E64 000:628.613 JLINK_CORESIGHT_WriteAPDPReg(AP reg 0x01, 0x80011140)
T4E64 000:628.794 - 0.181ms returns 0
T4E64 000:628.805 JLINK_CORESIGHT_ReadAPDPReg(AP reg 0x03)
T4E64 000:629.035   Value=0x00000002
T4E64 000:629.046 - 0.241ms returns 0
T4E64 000:629.056 JLINK_CORESIGHT_ReadAPDPReg(AP reg 0x03)
T4E64 000:629.274   Value=0x00000002
T4E64 000:629.284 - 0.228ms returns 0
T4E64 000:629.294 JLINK_CORESIGHT_ReadAPDPReg(AP reg 0x03)
T4E64 000:629.510   Value=0x00000002
T4E64 000:629.526 - 0.232ms returns 0
T4E64 000:629.537 JLINK_CORESIGHT_ReadAPDPReg(AP reg 0x03)
T4E64 000:629.781   Value=0x00000002
T4E64 000:629.791 - 0.254ms returns 0
T4E64 000:629.798 JLINK_CORESIGHT_ReadAPDPReg(AP reg 0x03)
T4E64 000:630.009   Value=0x00000002
T4E64 000:630.017 - 0.218ms returns 0
T4E64 000:630.023 JLINK_CORESIGHT_ReadAPDPReg(AP reg 0x03)
T4E64 000:630.273   Value=0x00000002
T4E64 000:630.281 - 0.257ms returns 0
T4E64 000:630.288 JLINK_CORESIGHT_ReadAPDPReg(AP reg 0x03)
T4E64 000:630.508   Value=0x00000002
T4E64 000:630.521 - 0.233ms returns 0
T4E64 000:630.529 JLINK_CORESIGHT_ReadAPDPReg(AP reg 0x03)
T4E64 000:630.772   Value=0x00000002
T4E64 000:630.780 - 0.250ms returns 0
T4E64 000:630.787 JLINK_CORESIGHT_ReadAPDPReg(AP reg 0x03)
T4E64 000:631.005   Value=0x00000002
T4E64 000:631.013 - 0.226ms returns 0
T4E64 000:631.020 JLINK_CORESIGHT_ReadAPDPReg(AP reg 0x03)
T4E64 000:631.230   Value=0x00000002
T4E64 000:631.237 - 0.217ms returns 0
T4E64 000:631.244 JLINK_CORESIGHT_ReadAPDPReg(AP reg 0x03)
T4E64 000:631.457   Value=0x00000000
T4E64 000:631.465 - 0.220ms returns 0
T4E64 000:631.471 JLINK_CORESIGHT_WriteAPDPReg(AP reg 0x00, 0x80000002)
T4E64 000:631.643 - 0.172ms returns 0
T4E64 000:631.653 JLINK_CORESIGHT_WriteAPDPReg(AP reg 0x01, 0x80011130)
T4E64 000:631.830 - 0.177ms returns 0
T4E64 000:631.840 JLINK_CORESIGHT_ReadAPDPReg(AP reg 0x03)
T4E64 000:632.079   Value=0x2C020081
T4E64 000:632.090 - 0.250ms returns 0
T4E64 000:632.100 JLINK_CORESIGHT_WriteAPDPReg(AP reg 0x00, 0x80000002)
T4E64 000:632.279 - 0.179ms returns 0
T4E64 000:632.289 JLINK_CORESIGHT_WriteAPDPReg(AP reg 0x01, 0x80011140)
T4E64 000:632.460 - 0.171ms returns 0
T4E64 000:632.470 JLINK_CORESIGHT_ReadAPDPReg(AP reg 0x03)
T4E64 000:632.702   Value=0x00000000
T4E64 000:632.712 - 0.241ms returns 0
T4E64 000:632.719 JLINK_CORESIGHT_WriteAPDPReg(AP reg 0x00, 0x80000002)
T4E64 000:632.891 - 0.172ms returns 0
T4E64 000:632.900 JLINK_CORESIGHT_WriteAPDPReg(AP reg 0x01, 0x80011130)
T4E64 000:633.070 - 0.169ms returns 0
T4E64 000:633.081 JLINK_CORESIGHT_ReadAPDPReg(AP reg 0x03)
T4E64 000:633.430   Value=0x0003CE04
T4E64 000:633.441 - 0.361ms returns 0
T4E64 000:633.456 JLINK_CORESIGHT_WriteAPDPReg(AP reg 0x00, 0x80000002)
T4E64 000:633.651 - 0.194ms returns 0
T4E64 000:633.665 JLINK_CORESIGHT_WriteAPDPReg(AP reg 0x01, 0x80011140)
T4E64 000:633.882 - 0.217ms returns 0
T4E64 000:633.893 JLINK_CORESIGHT_ReadAPDPReg(AP reg 0x03)
T4E64 000:634.123   Value=0x00000002
T4E64 000:634.131 - 0.238ms returns 0
T4E64 000:634.138 JLINK_CORESIGHT_WriteAPDPReg(AP reg 0x00, 0x80000002)
T4E64 000:634.311 - 0.172ms returns 0
T4E64 000:634.319 JLINK_CORESIGHT_WriteAPDPReg(AP reg 0x01, 0x80011120)
T4E64 000:634.520 - 0.200ms returns 0
T4E64 000:634.542 JLINK_CORESIGHT_WriteAPDPReg(AP reg 0x03, 0x73010001)
T4E64 000:634.789 - 0.246ms returns 0
T4E64 000:634.810 JLINK_CORESIGHT_WriteAPDPReg(AP reg 0x00, 0x80000002)
T4E64 000:635.023 - 0.213ms returns 0
T4E64 000:635.037 JLINK_CORESIGHT_WriteAPDPReg(AP reg 0x01, 0x80011140)
T4E64 000:635.233 - 0.195ms returns 0
T4E64 000:635.248 JLINK_CORESIGHT_ReadAPDPReg(AP reg 0x03)
T4E64 000:635.477   Value=0x00000002
T4E64 000:635.486 - 0.238ms returns 0
T4E64 000:635.494 JLINK_CORESIGHT_WriteAPDPReg(AP reg 0x00, 0x80000002)
T4E64 000:635.684 - 0.189ms returns 0
T4E64 000:635.691 JLINK_CORESIGHT_WriteAPDPReg(AP reg 0x01, 0x80011120)
T4E64 000:635.884 - 0.193ms returns 0
T4E64 000:635.892 JLINK_CORESIGHT_WriteAPDPReg(AP reg 0x03, 0x0000038C)
T4E64 000:636.061 - 0.168ms returns 0
T4E64 000:636.068 JLINK_CORESIGHT_WriteAPDPReg(AP reg 0x00, 0x80000002)
T4E64 000:636.229 - 0.161ms returns 0
T4E64 000:636.237 JLINK_CORESIGHT_WriteAPDPReg(AP reg 0x01, 0x80011140)
T4E64 000:636.407 - 0.170ms returns 0
T4E64 000:636.415 JLINK_CORESIGHT_ReadAPDPReg(AP reg 0x03)
T4E64 000:636.647   Value=0x00000002
T4E64 000:636.656 - 0.240ms returns 0
T4E64 000:636.662 JLINK_CORESIGHT_ReadAPDPReg(AP reg 0x03)
T4E64 000:636.936   Value=0x00000002
T4E64 000:636.944 - 0.281ms returns 0
T4E64 000:636.951 JLINK_CORESIGHT_ReadAPDPReg(AP reg 0x03)
T4E64 000:637.167   Value=0x00000002
T4E64 000:637.175 - 0.224ms returns 0
T4E64 000:637.182 JLINK_CORESIGHT_ReadAPDPReg(AP reg 0x03)
T4E64 000:637.393   Value=0x00000002
T4E64 000:637.406 - 0.223ms returns 0
T4E64 000:637.416 JLINK_CORESIGHT_ReadAPDPReg(AP reg 0x03)
T4E64 000:637.630   Value=0x00000002
T4E64 000:637.638 - 0.222ms returns 0
T4E64 000:637.644 JLINK_CORESIGHT_ReadAPDPReg(AP reg 0x03)
T4E64 000:637.860   Value=0x00000002
T4E64 000:637.868 - 0.223ms returns 0
T4E64 000:637.874 JLINK_CORESIGHT_ReadAPDPReg(AP reg 0x03)
T4E64 000:638.093   Value=0x00000002
T4E64 000:638.105 - 0.231ms returns 0
T4E64 000:638.115 JLINK_CORESIGHT_ReadAPDPReg(AP reg 0x03)
T4E64 000:638.330   Value=0x00000002
T4E64 000:638.339 - 0.223ms returns 0
T4E64 000:638.345 JLINK_CORESIGHT_ReadAPDPReg(AP reg 0x03)
T4E64 000:638.557   Value=0x00000002
T4E64 000:638.565 - 0.219ms returns 0
T4E64 000:638.572 JLINK_CORESIGHT_ReadAPDPReg(AP reg 0x03)
T4E64 000:638.780   Value=0x00000002
T4E64 000:638.787 - 0.216ms returns 0
T4E64 000:638.794 JLINK_CORESIGHT_ReadAPDPReg(AP reg 0x03)
T4E64 000:639.008   Value=0x00000002
T4E64 000:639.020 - 0.225ms returns 0
T4E64 000:639.035 JLINK_CORESIGHT_ReadAPDPReg(AP reg 0x03)
T4E64 000:639.268   Value=0x00000002
T4E64 000:639.276 - 0.240ms returns 0
T4E64 000:639.285 JLINK_CORESIGHT_ReadAPDPReg(AP reg 0x03)
T4E64 000:639.510   Value=0x00000002
T4E64 000:639.517 - 0.232ms returns 0
T4E64 000:639.526 JLINK_CORESIGHT_ReadAPDPReg(AP reg 0x03)
T4E64 000:639.779   Value=0x00000002
T4E64 000:639.787 - 0.261ms returns 0
T4E64 000:639.796 JLINK_CORESIGHT_ReadAPDPReg(AP reg 0x03)
T4E64 000:640.006   Value=0x00000002
T4E64 000:640.014 - 0.218ms returns 0
T4E64 000:640.023 JLINK_CORESIGHT_ReadAPDPReg(AP reg 0x03)
T4E64 000:640.234   Value=0x00000000
T4E64 000:640.242 - 0.219ms returns 0
T4E64 000:640.251 JLINK_CORESIGHT_WriteAPDPReg(AP reg 0x00, 0x80000002)
T4E64 000:640.416 - 0.164ms returns 0
T4E64 000:640.439 JLINK_CORESIGHT_WriteAPDPReg(AP reg 0x01, 0x80011130)
T4E64 000:640.629 - 0.189ms returns 0
T4E64 000:640.646 JLINK_CORESIGHT_ReadAPDPReg(AP reg 0x03)
T4E64 000:640.866   Value=0x73020081
T4E64 000:640.874 - 0.228ms returns 0
T4E64 000:640.883 JLINK_CORESIGHT_WriteAPDPReg(AP reg 0x00, 0x80000002)
T4E64 000:641.058 - 0.175ms returns 0
T4E64 000:641.067 JLINK_CORESIGHT_WriteAPDPReg(AP reg 0x01, 0x80011140)
T4E64 000:641.237 - 0.169ms returns 0
T4E64 000:641.256 JLINK_CORESIGHT_ReadAPDPReg(AP reg 0x03)
T4E64 000:641.482   Value=0x00000000
T4E64 000:641.490 - 0.234ms returns 0
T4E64 000:641.499 JLINK_CORESIGHT_WriteAPDPReg(AP reg 0x00, 0x80000002)
T4E64 000:641.671 - 0.172ms returns 0
T4E64 000:641.686 JLINK_CORESIGHT_WriteAPDPReg(AP reg 0x01, 0x80011130)
T4E64 000:641.885 - 0.199ms returns 0
T4E64 000:641.903 JLINK_CORESIGHT_ReadAPDPReg(AP reg 0x03)
T4E64 000:642.138   Value=0x00038902
T4E64 000:642.153 - 0.249ms returns 0
T4E64 000:642.532 JLINK_CORESIGHT_WriteAPDPReg(AP reg 0x00, 0x80000002)
T4E64 000:642.782 - 0.250ms returns 0
T4E64 000:642.797 JLINK_CORESIGHT_WriteAPDPReg(AP reg 0x01, 0x80011140)
T4E64 000:642.971 - 0.173ms returns 0
T4E64 000:642.979 JLINK_CORESIGHT_ReadAPDPReg(AP reg 0x03)
T4E64 000:643.207   Value=0x00000002
T4E64 000:643.215 - 0.236ms returns 0
T4E64 000:643.222 JLINK_CORESIGHT_WriteAPDPReg(AP reg 0x00, 0x80000002)
T4E64 000:643.404 - 0.182ms returns 0
T4E64 000:643.418 JLINK_CORESIGHT_WriteAPDPReg(AP reg 0x01, 0x80011120)
T4E64 000:643.609 - 0.190ms returns 0
T4E64 000:643.637 JLINK_CORESIGHT_WriteAPDPReg(AP reg 0x03, 0x75010001)
T4E64 000:643.820 - 0.184ms returns 0
T4E64 000:643.831 JLINK_CORESIGHT_WriteAPDPReg(AP reg 0x00, 0x80000002)
T4E64 000:644.008 - 0.176ms returns 0
T4E64 000:644.022 JLINK_CORESIGHT_WriteAPDPReg(AP reg 0x01, 0x80011140)
T4E64 000:644.202 - 0.180ms returns 0
T4E64 000:644.210 JLINK_CORESIGHT_ReadAPDPReg(AP reg 0x03)
T4E64 000:644.440   Value=0x00000002
T4E64 000:644.452 - 0.242ms returns 0
T4E64 000:644.460 JLINK_CORESIGHT_WriteAPDPReg(AP reg 0x00, 0x80000002)
T4E64 000:644.634 - 0.173ms returns 0
T4E64 000:644.641 JLINK_CORESIGHT_WriteAPDPReg(AP reg 0x01, 0x80011120)
T4E64 000:644.811 - 0.170ms returns 0
T4E64 000:644.821 JLINK_CORESIGHT_WriteAPDPReg(AP reg 0x03, 0x0000038A)
T4E64 000:644.992 - 0.171ms returns 0
T4E64 000:645.002 JLINK_CORESIGHT_WriteAPDPReg(AP reg 0x00, 0x80000002)
T4E64 000:645.182 - 0.180ms returns 0
T4E64 000:645.192 JLINK_CORESIGHT_WriteAPDPReg(AP reg 0x01, 0x80011140)
T4E64 000:645.361 - 0.170ms returns 0
T4E64 000:645.371 JLINK_CORESIGHT_ReadAPDPReg(AP reg 0x03)
T4E64 000:645.602   Value=0x00000002
T4E64 000:645.612 - 0.241ms returns 0
T4E64 000:645.621 JLINK_CORESIGHT_ReadAPDPReg(AP reg 0x03)
T4E64 000:645.842   Value=0x00000002
T4E64 000:645.853 - 0.231ms returns 0
T4E64 000:645.861 JLINK_CORESIGHT_ReadAPDPReg(AP reg 0x03)
T4E64 000:646.076   Value=0x00000002
T4E64 000:646.086 - 0.224ms returns 0
T4E64 000:646.094 JLINK_CORESIGHT_ReadAPDPReg(AP reg 0x03)
T4E64 000:646.310   Value=0x00000002
T4E64 000:646.318 - 0.223ms returns 0
T4E64 000:646.324 JLINK_CORESIGHT_ReadAPDPReg(AP reg 0x03)
T4E64 000:646.522   Value=0x00000002
T4E64 000:646.529 - 0.205ms returns 0
T4E64 000:646.536 JLINK_CORESIGHT_ReadAPDPReg(AP reg 0x03)
T4E64 000:646.782   Value=0x00000002
T4E64 000:646.793 - 0.257ms returns 0
T4E64 000:646.803 JLINK_CORESIGHT_ReadAPDPReg(AP reg 0x03)
T4E64 000:647.027   Value=0x00000002
T4E64 000:647.036 - 0.233ms returns 0
T4E64 000:647.042 JLINK_CORESIGHT_ReadAPDPReg(AP reg 0x03)
T4E64 000:647.255   Value=0x00000002
T4E64 000:647.263 - 0.220ms returns 0
T4E64 000:647.270 JLINK_CORESIGHT_ReadAPDPReg(AP reg 0x03)
T4E64 000:647.480   Value=0x00000002
T4E64 000:647.488 - 0.218ms returns 0
T4E64 000:647.495 JLINK_CORESIGHT_ReadAPDPReg(AP reg 0x03)
T4E64 000:647.780   Value=0x00000002
T4E64 000:647.788 - 0.293ms returns 0
T4E64 000:647.794 JLINK_CORESIGHT_ReadAPDPReg(AP reg 0x03)
T4E64 000:648.036   Value=0x00000002
T4E64 000:648.044 - 0.250ms returns 0
T4E64 000:648.051 JLINK_CORESIGHT_ReadAPDPReg(AP reg 0x03)
T4E64 000:648.262   Value=0x00000002
T4E64 000:648.270 - 0.219ms returns 0
T4E64 000:648.276 JLINK_CORESIGHT_ReadAPDPReg(AP reg 0x03)
T4E64 000:648.488   Value=0x00000000
T4E64 000:648.498 - 0.221ms returns 0
T4E64 000:648.513 JLINK_CORESIGHT_WriteAPDPReg(AP reg 0x00, 0x80000002)
T4E64 000:648.683 - 0.169ms returns 0
T4E64 000:648.692 JLINK_CORESIGHT_WriteAPDPReg(AP reg 0x01, 0x80011130)
T4E64 000:648.881 - 0.189ms returns 0
T4E64 000:648.891 JLINK_CORESIGHT_ReadAPDPReg(AP reg 0x03)
T4E64 000:649.118   Value=0x75020081
T4E64 000:649.128 - 0.237ms returns 0
T4E64 000:649.137 JLINK_CORESIGHT_WriteAPDPReg(AP reg 0x00, 0x80000002)
T4E64 000:649.294 - 0.156ms returns 0
T4E64 000:649.303 JLINK_CORESIGHT_WriteAPDPReg(AP reg 0x01, 0x80011140)
T4E64 000:649.478 - 0.175ms returns 0
T4E64 000:649.487 JLINK_CORESIGHT_ReadAPDPReg(AP reg 0x03)
T4E64 000:649.780   Value=0x00000000
T4E64 000:649.802 - 0.315ms returns 0
T4E64 000:649.813 JLINK_CORESIGHT_WriteAPDPReg(AP reg 0x00, 0x80000002)
T4E64 000:650.127 - 0.314ms returns 0
T4E64 000:650.144 JLINK_CORESIGHT_WriteAPDPReg(AP reg 0x01, 0x80011130)
T4E64 000:650.348 - 0.204ms returns 0
T4E64 000:650.367 JLINK_CORESIGHT_ReadAPDPReg(AP reg 0x03)
T4E64 000:650.686   Value=0x00038702
T4E64 000:650.707 - 0.340ms returns 0
T4E64 000:650.726 JLINK_CORESIGHT_WriteAPDPReg(AP reg 0x00, 0x80000002)
T4E64 000:650.946 - 0.219ms returns 0
T4E64 000:650.958 JLINK_CORESIGHT_WriteAPDPReg(AP reg 0x01, 0x80011140)
T4E64 000:651.259 - 0.300ms returns 0
T4E64 000:651.275 JLINK_CORESIGHT_ReadAPDPReg(AP reg 0x03)
T4E64 000:651.513   Value=0x00000002
T4E64 000:651.527 - 0.252ms returns 0
T4E64 000:651.536 JLINK_CORESIGHT_WriteAPDPReg(AP reg 0x00, 0x80000002)
T4E64 000:651.792 - 0.255ms returns 0
T4E64 000:651.801 JLINK_CORESIGHT_WriteAPDPReg(AP reg 0x01, 0x80011120)
T4E64 000:651.975 - 0.173ms returns 0
T4E64 000:651.982 JLINK_CORESIGHT_WriteAPDPReg(AP reg 0x03, 0x4F010001)
T4E64 000:652.168 - 0.186ms returns 0
T4E64 000:652.176 JLINK_CORESIGHT_WriteAPDPReg(AP reg 0x00, 0x80000002)
T4E64 000:652.349 - 0.173ms returns 0
T4E64 000:652.356 JLINK_CORESIGHT_WriteAPDPReg(AP reg 0x01, 0x80011140)
T4E64 000:652.535 - 0.179ms returns 0
T4E64 000:652.542 JLINK_CORESIGHT_ReadAPDPReg(AP reg 0x03)
T4E64 000:652.790   Value=0x00000002
T4E64 000:652.809 - 0.266ms returns 0
T4E64 000:652.820 JLINK_CORESIGHT_WriteAPDPReg(AP reg 0x00, 0x80000002)
T4E64 000:653.022 - 0.202ms returns 0
T4E64 000:653.033 JLINK_CORESIGHT_WriteAPDPReg(AP reg 0x01, 0x80011120)
T4E64 000:653.233 - 0.200ms returns 0
T4E64 000:653.243 JLINK_CORESIGHT_WriteAPDPReg(AP reg 0x03, 0x000003B0)
T4E64 000:653.428 - 0.184ms returns 0
T4E64 000:653.437 JLINK_CORESIGHT_WriteAPDPReg(AP reg 0x00, 0x80000002)
T4E64 000:653.612 - 0.174ms returns 0
T4E64 000:653.622 JLINK_CORESIGHT_WriteAPDPReg(AP reg 0x01, 0x80011140)
T4E64 000:653.811 - 0.189ms returns 0
T4E64 000:653.821 JLINK_CORESIGHT_ReadAPDPReg(AP reg 0x03)
T4E64 000:654.050   Value=0x00000002
T4E64 000:654.064 - 0.243ms returns 0
T4E64 000:654.073 JLINK_CORESIGHT_ReadAPDPReg(AP reg 0x03)
T4E64 000:654.307   Value=0x00000002
T4E64 000:654.319 - 0.246ms returns 0
T4E64 000:654.328 JLINK_CORESIGHT_ReadAPDPReg(AP reg 0x03)
T4E64 000:654.550   Value=0x00000002
T4E64 000:654.561 - 0.232ms returns 0
T4E64 000:654.569 JLINK_CORESIGHT_ReadAPDPReg(AP reg 0x03)
T4E64 000:654.794   Value=0x00000002
T4E64 000:654.802 - 0.232ms returns 0
T4E64 000:654.808 JLINK_CORESIGHT_ReadAPDPReg(AP reg 0x03)
T4E64 000:655.021   Value=0x00000002
T4E64 000:655.028 - 0.220ms returns 0
T4E64 000:655.035 JLINK_CORESIGHT_ReadAPDPReg(AP reg 0x03)
T4E64 000:655.249   Value=0x00000002
T4E64 000:655.257 - 0.222ms returns 0
T4E64 000:655.264 JLINK_CORESIGHT_ReadAPDPReg(AP reg 0x03)
T4E64 000:655.471   Value=0x00000002
T4E64 000:655.479 - 0.215ms returns 0
T4E64 000:655.486 JLINK_CORESIGHT_ReadAPDPReg(AP reg 0x03)
T4E64 000:655.698   Value=0x00000002
T4E64 000:655.708 - 0.222ms returns 0
T4E64 000:655.716 JLINK_CORESIGHT_ReadAPDPReg(AP reg 0x03)
T4E64 000:655.930   Value=0x00000002
T4E64 000:655.942 - 0.225ms returns 0
T4E64 000:655.950 JLINK_CORESIGHT_ReadAPDPReg(AP reg 0x03)
T4E64 000:656.164   Value=0x00000002
T4E64 000:656.174 - 0.224ms returns 0
T4E64 000:656.183 JLINK_CORESIGHT_ReadAPDPReg(AP reg 0x03)
T4E64 000:656.470   Value=0x00000002
T4E64 000:656.481 - 0.297ms returns 0
T4E64 000:656.490 JLINK_CORESIGHT_ReadAPDPReg(AP reg 0x03)
T4E64 000:656.783   Value=0x00000002
T4E64 000:656.797 - 0.307ms returns 0
T4E64 000:656.808 JLINK_CORESIGHT_ReadAPDPReg(AP reg 0x03)
T4E64 000:657.064   Value=0x00000002
T4E64 000:657.079 - 0.270ms returns 0
T4E64 000:657.089 JLINK_CORESIGHT_ReadAPDPReg(AP reg 0x03)
T4E64 000:657.323   Value=0x00000002
T4E64 000:657.337 - 0.248ms returns 0
T4E64 000:657.345 JLINK_CORESIGHT_ReadAPDPReg(AP reg 0x03)
T4E64 000:657.611   Value=0x00000000
T4E64 000:657.626 - 0.280ms returns 0
T4E64 000:657.636 JLINK_CORESIGHT_WriteAPDPReg(AP reg 0x00, 0x80000002)
T4E64 000:657.818 - 0.181ms returns 0
T4E64 000:657.826 JLINK_CORESIGHT_WriteAPDPReg(AP reg 0x01, 0x80011130)
T4E64 000:658.041 - 0.214ms returns 0
T4E64 000:658.052 JLINK_CORESIGHT_ReadAPDPReg(AP reg 0x03)
T4E64 000:658.289   Value=0x4F0B0081
T4E64 000:658.298 - 0.246ms returns 0
T4E64 000:658.305 JLINK_CORESIGHT_WriteAPDPReg(AP reg 0x00, 0x80000002)
T4E64 000:658.474 - 0.168ms returns 0
T4E64 000:658.481 JLINK_CORESIGHT_WriteAPDPReg(AP reg 0x01, 0x80011140)
T4E64 000:658.661 - 0.180ms returns 0
T4E64 000:658.670 JLINK_CORESIGHT_ReadAPDPReg(AP reg 0x03)
T4E64 000:658.949   Value=0x00000000
T4E64 000:658.969 - 0.299ms returns 0
T4E64 000:658.980 JLINK_CORESIGHT_WriteAPDPReg(AP reg 0x00, 0x80000002)
T4E64 000:659.180 - 0.200ms returns 0
T4E64 000:659.194 JLINK_CORESIGHT_WriteAPDPReg(AP reg 0x01, 0x80011130)
T4E64 000:659.364 - 0.170ms returns 0
T4E64 000:659.372 JLINK_CORESIGHT_ReadAPDPReg(AP reg 0x03)
T4E64 000:659.600   Value=0xE0070000
T4E64 000:659.608 - 0.236ms returns 0
T4E64 000:659.616 JLINK_CORESIGHT_WriteAPDPReg(AP reg 0x00, 0x80000002)
T4E64 000:659.786 - 0.170ms returns 0
T4E64 000:659.793 JLINK_CORESIGHT_WriteAPDPReg(AP reg 0x01, 0x80011140)
T4E64 000:659.968 - 0.175ms returns 0
T4E64 000:659.976 JLINK_CORESIGHT_ReadAPDPReg(AP reg 0x03)
T4E64 000:660.208   Value=0x00000000
T4E64 000:660.221 - 0.244ms returns 0
T4E64 000:660.229 JLINK_CORESIGHT_WriteAPDPReg(AP reg 0x00, 0x80000002)
T4E64 000:660.397 - 0.168ms returns 0
T4E64 000:660.406 JLINK_CORESIGHT_WriteAPDPReg(AP reg 0x01, 0x80011130)
T4E64 000:660.577 - 0.171ms returns 0
T4E64 000:660.597 JLINK_CORESIGHT_ReadAPDPReg(AP reg 0x03)
T4E64 000:660.845   Value=0x00000C00
T4E64 000:660.858 - 0.261ms returns 0
T4E64 000:660.866 JLINK_CORESIGHT_WriteAPDPReg(AP reg 0x00, 0x80000002)
T4E64 000:661.039 - 0.173ms returns 0
T4E64 000:661.046 JLINK_CORESIGHT_WriteAPDPReg(AP reg 0x01, 0x80011140)
T4E64 000:661.221 - 0.174ms returns 0
T4E64 000:661.230 JLINK_CORESIGHT_ReadAPDPReg(AP reg 0x03)
T4E64 000:661.453   Value=0x00000000
T4E64 000:661.461 - 0.230ms returns 0
T4E64 000:661.468 JLINK_CORESIGHT_WriteAPDPReg(AP reg 0x00, 0x80000002)
T4E64 000:661.636 - 0.167ms returns 0
T4E64 000:661.643 JLINK_CORESIGHT_WriteAPDPReg(AP reg 0x01, 0x80011130)
T4E64 000:661.846 - 0.203ms returns 0
T4E64 000:661.854 JLINK_CORESIGHT_ReadAPDPReg(AP reg 0x03)
T4E64 000:662.083   Value=0x03B30000
T4E64 000:662.091 - 0.237ms returns 0
T4E64 000:662.177 JLINK_CORESIGHT_ReadAPDPReg(DP reg 0x01)
T4E64 000:662.388   Value=0xF0000F40
T4E64 000:662.401 - 0.224ms returns 0
T4E64 000:662.409 JLINK_CORESIGHT_WriteAPDPReg(DP reg 0x01, 0xA0000F40)
T4E64 000:662.602 - 0.192ms returns 0
T4E64 000:662.621 JLINK_CORESIGHT_ReadAPDPReg(DP reg 0x01)
T4E64 000:662.806   Value=0x00000F40
T4E64 000:662.814 - 0.193ms returns 0
T4E64 000:662.822 JLINK_ClrRESET()
T4E64 000:662.977 - 0.155ms 
T4E64 000:764.227 JLINK_Close()
T4E64 000:781.437 - 17.209ms
T4E64 000:781.477   
T4E64 000:781.484   Closed
